Circuit: * Z:\home\lu\source\Projects\LightTable\CircuitSimulationSmallTest.asc

Warning: Multiple definitions of model "2scr375p" Type: BJT
Warning: Multiple definitions of model "bc857b" Type: BJT
Warning: Multiple definitions of model "bc847c" Type: BJT
Warning: Multiple definitions of model "bc847b" Type: BJT
Direct Newton iteration for .op point succeeded.
Semiconductor Device Operating Points:
                        --- Diodes ---
Name:      d2          d3          d5          d25         d26
Model:    hvled       hvled       hvled       hvled       hvled
Id:      1.50e-01    1.50e-01    1.50e-01    1.50e-01    1.50e-01
Vd:      3.41e+00    3.41e+00    3.41e+00    3.41e+00    3.41e+00
Req:     1.12e+00    1.12e+00    1.12e+00    1.12e+00    1.12e+00
CAP:     2.65e-09    2.65e-09    2.65e-09    2.65e-09    2.65e-09

Name:      d27         d6          d1          d4          d22
Model:    hvled       lvled       lvled       lvled       lvled
Id:      1.50e-01    1.51e-01    1.51e-01    1.51e-01    1.51e-01
Vd:      3.41e+00    3.31e+00    3.31e+00    3.31e+00    3.31e+00
Req:     1.12e+00    1.08e+00    1.08e+00    1.08e+00    1.08e+00
CAP:     2.65e-09    2.58e-09    2.58e-09    0.00e+00    0.00e+00

Name:      d23         d24         d7          d8          d9
Model:    lvled       lvled      refled      refled      refled
Id:      1.51e-01    1.51e-01    1.51e-01    1.51e-01    1.51e-01
Vd:      3.31e+00    3.31e+00    3.36e+00    3.36e+00    3.36e+00
Req:     1.08e+00    1.08e+00    1.10e+00    1.10e+00    1.10e+00
CAP:     0.00e+00    0.00e+00    0.00e+00    0.00e+00    0.00e+00

Name:      d28         d29         d30         d10         d13
Model:   refled      refled      refled     aot-2015    aot-2015
Id:      1.51e-01    1.51e-01    1.51e-01    1.51e-01    1.51e-01
Vd:      3.36e+00    3.36e+00    3.36e+00    3.27e+00    3.27e+00
Req:     1.10e+00    1.10e+00    1.10e+00    1.07e+00    1.07e+00
CAP:     0.00e+00    0.00e+00    0.00e+00    0.00e+00    0.00e+00

Name:      d16         d19         d31         d32         d33
Model:  aot-2015    aot-2015    aot-2015    aot-2015    aot-2015
Id:      1.51e-01    1.51e-01    1.51e-01    1.51e-01    1.51e-01
Vd:      3.27e+00    3.27e+00    3.27e+00    3.27e+00    3.27e+00
Req:     1.07e+00    1.07e+00    1.07e+00    1.07e+00    1.07e+00
CAP:     0.00e+00    0.00e+00    0.00e+00    0.00e+00    0.00e+00

Name:      d37         d40         d43         d46         d49
Model:  aot-2015    aot-2015    aot-2015    aot-2015    aot-2015
Id:      1.51e-01    1.51e-01    1.51e-01    1.51e-01    1.51e-01
Vd:      3.27e+00    3.27e+00    3.27e+00    3.27e+00    3.27e+00
Req:     1.07e+00    1.07e+00    1.07e+00    1.07e+00    1.07e+00
CAP:     0.00e+00    0.00e+00    0.00e+00    0.00e+00    0.00e+00

Name:      d52         d55         d58         d11         d12
Model:  aot-2015    aot-2015    aot-2015     meanled     meanled
Id:      1.51e-01    1.51e-01    1.51e-01    1.51e-01    1.51e-01
Vd:      3.27e+00    3.27e+00    3.27e+00    3.36e+00    3.36e+00
Req:     1.07e+00    1.07e+00    1.07e+00    1.10e+00    1.10e+00
CAP:     0.00e+00    0.00e+00    0.00e+00    0.00e+00    0.00e+00

Name:      d14         d15         d17         d18         d20
Model:   meanled     meanled     meanled     meanled     meanled
Id:      1.51e-01    1.51e-01    1.51e-01    1.51e-01    1.51e-01
Vd:      3.36e+00    3.36e+00    3.36e+00    3.36e+00    3.36e+00
Req:     1.10e+00    1.10e+00    1.10e+00    1.10e+00    1.10e+00
CAP:     0.00e+00    0.00e+00    0.00e+00    0.00e+00    0.00e+00

Name:      d21         d34         d35         d36         d38
Model:   meanled     meanled     meanled     meanled     meanled
Id:      1.51e-01    1.51e-01    1.51e-01    1.51e-01    1.51e-01
Vd:      3.36e+00    3.36e+00    3.36e+00    3.36e+00    3.36e+00
Req:     1.10e+00    1.10e+00    1.10e+00    1.10e+00    1.10e+00
CAP:     0.00e+00    0.00e+00    0.00e+00    0.00e+00    0.00e+00

Name:      d39         d41         d42         d44         d45
Model:   meanled     meanled     meanled     meanled     meanled
Id:      1.51e-01    1.51e-01    1.51e-01    1.51e-01    1.51e-01
Vd:      3.36e+00    3.36e+00    3.36e+00    3.36e+00    3.36e+00
Req:     1.10e+00    1.10e+00    1.10e+00    1.10e+00    1.10e+00
CAP:     0.00e+00    0.00e+00    0.00e+00    0.00e+00    0.00e+00

Name:      d47         d48         d50         d51         d53
Model:   meanled     meanled     meanled     meanled     meanled
Id:      1.51e-01    1.51e-01    1.51e-01    1.51e-01    1.51e-01
Vd:      3.36e+00    3.36e+00    3.36e+00    3.36e+00    3.36e+00
Req:     1.10e+00    1.10e+00    1.10e+00    1.10e+00    1.10e+00
CAP:     0.00e+00    0.00e+00    0.00e+00    0.00e+00    0.00e+00

Name:      d54         d56         d57         d59         d60
Model:   meanled     meanled     meanled     meanled     meanled
Id:      1.51e-01    1.51e-01    1.51e-01    1.51e-01    1.51e-01
Vd:      3.36e+00    3.36e+00    3.36e+00    3.36e+00    3.36e+00
Req:     1.10e+00    1.10e+00    1.10e+00    1.10e+00    1.10e+00
CAP:     0.00e+00    0.00e+00    0.00e+00    0.00e+00    0.00e+00

                        --- Bipolar Transistors ---
Name:      qref         q1          q2          q3          q4
Model:     tled        tled        tled        tled        tled
Ib:       9.00e-04    9.05e-04    9.02e-04    9.03e-04    9.03e-04
Ic:       1.51e-01    1.50e-01    1.51e-01    1.51e-01    1.51e-01
Vbe:      8.35e-01    8.35e-01    8.35e-01    8.35e-01    8.35e-01
Vbc:     -7.09e-01    3.14e-01   -2.69e-01   -1.50e-01   -1.50e-01
Vce:      1.54e+00    5.20e-01    1.10e+00    9.85e-01    9.85e-01
BetaDC:   1.68e+02    1.66e+02    1.67e+02    1.67e+02    1.67e+02
Gm:       4.38e+00    4.35e+00    4.37e+00    4.36e+00    4.36e+00
Rpi:      2.87e+01    2.86e+01    2.87e+01    2.86e+01    2.86e+01
Rx:       1.00e+01    1.00e+01    1.00e+01    1.00e+01    1.00e+01
Ro:       6.66e+02    6.64e+02    6.65e+02    6.65e+02    6.65e+02
Cbe:      2.24e-09    2.42e-09    2.31e-09    2.33e-09    2.33e-09
Cbc:      6.48e-12    9.88e-12    7.32e-12    7.64e-12    7.64e-12
Cjs:      0.00e+00    0.00e+00    0.00e+00    0.00e+00    0.00e+00
BetaAC:   1.26e+02    1.24e+02    1.25e+02    1.25e+02    1.25e+02
Cbx:      0.00e+00    0.00e+00    0.00e+00    0.00e+00    0.00e+00
Ft:       3.10e+08    2.85e+08    3.00e+08    2.97e+08    2.97e+08

Name:       q5          q6          q7          q8          q9
Model:     tled        tled        tled        tled        tled
Ib:       9.03e-04    9.03e-04    9.03e-04    9.03e-04    9.03e-04
Ic:       1.51e-01    1.51e-01    1.51e-01    1.51e-01    1.51e-01
Vbe:      8.35e-01    8.35e-01    8.35e-01    8.35e-01    8.35e-01
Vbc:     -2.36e-01   -1.50e-01   -1.50e-01   -1.50e-01   -1.50e-01
Vce:      1.07e+00    9.85e-01    9.85e-01    9.85e-01    9.85e-01
BetaDC:   1.67e+02    1.67e+02    1.67e+02    1.67e+02    1.67e+02
Gm:       4.36e+00    4.36e+00    4.36e+00    4.36e+00    4.36e+00
Rpi:      2.87e+01    2.86e+01    2.86e+01    2.86e+01    2.86e+01
Rx:       1.00e+01    1.00e+01    1.00e+01    1.00e+01    1.00e+01
Ro:       6.65e+02    6.65e+02    6.65e+02    6.65e+02    6.65e+02
Cbe:      2.32e-09    2.33e-09    2.33e-09    0.00e+00    0.00e+00
Cbc:      7.40e-12    7.64e-12    7.64e-12    0.00e+00    0.00e+00
Cjs:      0.00e+00    0.00e+00    0.00e+00    0.00e+00    0.00e+00
BetaAC:   1.25e+02    1.25e+02    1.25e+02    1.25e+02    1.25e+02
Cbx:      0.00e+00    0.00e+00    0.00e+00    0.00e+00    0.00e+00
Ft:       2.99e+08    2.97e+08    2.97e+08    0.00e+00    0.00e+00

Name:      qctrl
Model:     tctrl
Ib:       3.01e-05
Ic:       9.00e-03
Vbe:      7.09e-01
Vbc:     -2.25e+01
Vce:      2.32e+01
BetaDC:   2.99e+02
Gm:       3.40e-01
Rpi:      8.59e+02
Rx:       1.00e+01
Ro:       1.36e+04
Cbe:      0.00e+00
Cbc:      0.00e+00
Cjs:      0.00e+00
BetaAC:   2.92e+02
Cbx:      0.00e+00
Ft:       0.00e+00



Date: Thu Feb  9 11:47:15 2023
Total elapsed time: 0.792 seconds.

tnom = 27
temp = 27
method = trap
totiter = 8
traniter = 0
tranpoints = 0
accept = 0
rejected = 0
matrix size = 167
fillins = 266
solver = Normal
Avg thread counts: 8.0/0.0/8.0/8.0
Matrix Compiler1: 21.19 KB object code size
Matrix Compiler2: 17.36 KB object code size
